T08E8 15872:685.645   SEGGER J-Link V7.66a Log File
T08E8 15872:685.798   DLL Compiled: May 19 2022 15:13:27
T08E8 15872:685.830   Logging started @ 2022-05-23 11:20
T08E8 15872:685.853 - 198903.545ms
T08E8 15872:685.981 JLINK_SetWarnOutHandler(...)
T08E8 15872:686.135 - 0.178ms
T08E8 15872:686.193 JLINK_OpenEx(...)
T08E8 15872:688.814   Firmware: J-Link V10 compiled Nov  2 2021 12:14:50
T08E8 15872:689.794   Firmware: J-Link V10 compiled Nov  2 2021 12:14:50
T08E8 15872:690.509   Decompressing FW timestamp took 496 us
T08E8 15872:693.472   Hardware: V10.10
T08E8 15872:693.545   S/N: 260113870
T08E8 15872:693.665   OEM: SEGGER-EDU
T08E8 15872:693.728   Feature(s): FlashBP, GDB
T08E8 15872:697.526   TELNET listener socket opened on port 19021
T08E8 15872:722.694   Device "ARM7" selected.
T08E8 15872:725.309   WEBSRV WEBSRV_Init(): Starting webserver thread(s)
T08E8 15872:725.600   WEBSRV Webserver running on local port 19080
T08E8 15872:761.995 - 75.833ms returns "O.K."
T08E8 15872:762.058 JLINK_GetEmuCaps()
T08E8 15872:762.077 - 0.027ms returns 0xB9FF7BBF
T08E8 15872:762.432 JLINK_TIF_GetAvailable(...)
T08E8 15872:762.704 - 0.296ms
T08E8 15872:762.747 JLINK_SetErrorOutHandler(...)
T08E8 15872:762.764 - 0.026ms
T08E8 15872:762.794 JLINK_ExecCommand("ProjectFile = "C:\Users\Join\Desktop\YD85_–ﬁ∏¥—∞ø®Õ£÷π_20220402\Flash_¿©»›≤‚ ‘_20210805\20180825\examples\ble_peripheral\ble_app\pca10028\s110\arm4\JLinkSettings.ini"", ...). 
T08E8 15872:769.684   Device "ARM7" selected.
T08E8 15872:770.371 - 7.594ms returns 0x00
T08E8 15872:776.051 JLINK_ExecCommand("Device = nRF51422_xxAC", ...). 
T08E8 15872:782.016   Device "NRF51422_XXAC" selected.
T08E8 15872:782.716 - 6.643ms returns 0x00
T08E8 15872:782.757 JLINK_ExecCommand("DisableConnectionTimeout", ...). 
T08E8 15872:782.781 - 0.012ms returns 0x01
T08E8 15872:782.808 JLINK_GetHardwareVersion()
T08E8 15872:782.826 - 0.026ms returns 101000
T08E8 15872:782.848 JLINK_GetDLLVersion()
T08E8 15872:782.865 - 0.025ms returns 76601
T08E8 15872:782.885 JLINK_GetOEMString(...)
T08E8 15872:798.360 JLINK_GetDLLVersion()
T08E8 15872:798.400 - 0.050ms returns 76601
T08E8 15872:798.429 JLINK_GetCompileDateTime()
T08E8 15872:798.448 - 0.028ms
T08E8 15872:802.261 JLINK_GetFirmwareString(...)
T08E8 15872:802.291 - 0.039ms
T08E8 15872:805.574 JLINK_GetHardwareVersion()
T08E8 15872:805.603 - 0.036ms returns 101000
T08E8 15872:808.289 JLINK_GetSN()
T08E8 15872:808.312 - 0.029ms returns 260113870
T08E8 15872:811.607 JLINK_GetOEMString(...)
T08E8 15872:818.790 JLINK_TIF_Select(JLINKARM_TIF_SWD)
T08E8 15872:819.731 - 0.954ms returns 0x00
T08E8 15872:819.756 JLINK_HasError()
T08E8 15872:819.770 JLINK_SetSpeed(5000)
T08E8 15872:819.923 - 0.166ms
T08E8 15872:819.948 JLINK_GetId()
T08E8 15872:823.369   Found SW-DP with ID 0x0BB11477
T08E8 15872:827.997   DPIDR: 0x0BB11477
T08E8 15872:830.262   CoreSight SoC-400 or earlier
T08E8 15872:832.646   Scanning AP map to find all available APs
T08E8 15872:835.647   AP[1]: Stopped AP scan as end of AP map has been reached
T08E8 15872:837.995   AP[0]: AHB-AP (IDR: 0x04770021)
T08E8 15872:840.311   Iterating through AP map to find AHB-AP to use
T08E8 15872:843.428   AP[0]: Core found
T08E8 15872:845.761   AP[0]: AHB-AP ROM base: 0xF0000000
T08E8 15872:848.459   CPUID register: 0x410CC200. Implementer code: 0x41 (ARM)
T08E8 15872:850.815   Found Cortex-M0 r0p0, Little endian.
T08E8 15872:952.452   -- Max. mem block: 0x00004598
T08E8 15872:952.712   CPU_ReadMem(4 bytes @ 0xE000EDF0)
T08E8 15872:953.190   CPU_WriteMem(4 bytes @ 0xE000EDF0)
T08E8 15872:953.691   CPU_ReadMem(4 bytes @ 0xE0002000)
T08E8 15872:961.874   FPUnit: 4 code (BP) slots and 0 literal slots
T08E8 15872:961.969   CPU_ReadMem(4 bytes @ 0xE000EDFC)
T08E8 15872:962.442   CPU_WriteMem(4 bytes @ 0xE000EDFC)
T08E8 15872:962.954   CPU_ReadMem(4 bytes @ 0xE0001000)
T08E8 15872:963.456   CPU_WriteMem(4 bytes @ 0xE0001000)
T08E8 15872:971.156   CoreSight components:
T08E8 15872:978.214   ROMTbl[0] @ F0000000
T08E8 15872:978.296   CPU_ReadMem(64 bytes @ 0xF0000000)
T08E8 15872:979.094   CPU_ReadMem(32 bytes @ 0xE00FFFE0)
T08E8 15872:987.223   [0][0]: E00FF000 CID B105100D PID 000BB471 ROM Table
T08E8 15872:994.380   ROMTbl[1] @ E00FF000
T08E8 15872:994.461   CPU_ReadMem(64 bytes @ 0xE00FF000)
T08E8 15872:995.190   CPU_ReadMem(32 bytes @ 0xE000EFE0)
T08E8 15873:002.639   [1][0]: E000E000 CID B105E00D PID 000BB008 SCS
T08E8 15873:002.697   CPU_ReadMem(32 bytes @ 0xE0001FE0)
T08E8 15873:008.269   [1][1]: E0001000 CID B105E00D PID 000BB00A DWT
T08E8 15873:008.331   CPU_ReadMem(32 bytes @ 0xE0002FE0)
T08E8 15873:012.617   [1][2]: E0002000 CID B105E00D PID 000BB00B FPB
T08E8 15873:012.660   CPU_ReadMem(32 bytes @ 0xF0002FE0)
T08E8 15873:016.808   [0][1]: F0002000 CID B105900D PID 000BB9A3 ???
T08E8 15873:016.847   CPU_ReadMem(4 bytes @ 0x10001004)
T08E8 15873:017.489 - 197.559ms returns 0x0BB11477
T08E8 15873:017.527 JLINK_GetDLLVersion()
T08E8 15873:017.541 - 0.019ms returns 76601
T08E8 15873:017.561 JLINK_CORE_GetFound()
T08E8 15873:017.576 - 0.021ms returns 0x60000FF
T08E8 15873:017.592 JLINK_GetDebugInfo(0x100 = JLINKARM_ROM_TABLE_ADDR_INDEX)
T08E8 15873:017.606   Value=0xF0000000
T08E8 15873:017.681 - 0.098ms returns 0
T08E8 15873:020.779 JLINK_GetDebugInfo(0x100 = JLINKARM_ROM_TABLE_ADDR_INDEX)
T08E8 15873:020.804   Value=0xF0000000
T08E8 15873:020.823 - 0.050ms returns 0
T08E8 15873:020.838 JLINK_GetDebugInfo(0x101 = JLINKARM_DEBUG_INFO_ETM_ADDR_INDEX)
T08E8 15873:020.854   Value=0x00000000
T08E8 15873:020.871 - 0.039ms returns 0
T08E8 15873:020.888 JLINK_ReadMemEx(0xE0041FF0, 0x10 Bytes, Flags = 0x02000004)
T08E8 15873:020.913   CPU_ReadMem(16 bytes @ 0xE0041FF0)
T08E8 15873:021.277   Data:  00 00 00 00 00 00 00 00 00 00 00 00 00 00 00 00
T08E8 15873:021.308 - 0.426ms returns 16 (0x10)
T08E8 15873:021.326 JLINK_GetDebugInfo(0x102 = JLINKARM_DEBUG_INFO_MTB_ADDR_INDEX)
T08E8 15873:021.340   Value=0x00000000
T08E8 15873:021.358 - 0.038ms returns 0
T08E8 15873:021.372 JLINK_GetDebugInfo(0x103 = JLINKARM_DEBUG_INFO_TPIU_ADDR_INDEX)
T08E8 15873:021.385   Value=0x00000000
T08E8 15873:021.403 - 0.037ms returns 0
T08E8 15873:021.416 JLINK_ReadMemEx(0xE0040FF0, 0x10 Bytes, Flags = 0x02000004)
T08E8 15873:021.435   CPU_ReadMem(16 bytes @ 0xE0040FF0)
T08E8 15873:021.792   Data:  00 00 00 00 00 00 00 00 00 00 00 00 00 00 00 00
T08E8 15873:021.823 - 0.413ms returns 16 (0x10)
T08E8 15873:021.840 JLINK_GetDebugInfo(0x104 = JLINKARM_DEBUG_INFO_ITM_ADDR_INDEX)
T08E8 15873:021.855   Value=0xE0000000
T08E8 15873:021.872 - 0.037ms returns 0
T08E8 15873:021.885 JLINK_GetDebugInfo(0x105 = JLINKARM_DEBUG_INFO_DWT_ADDR_INDEX)
T08E8 15873:021.897   Value=0xE0001000
T08E8 15873:021.914 - 0.034ms returns 0
T08E8 15873:021.927 JLINK_GetDebugInfo(0x106 = JLINKARM_DEBUG_INFO_FPB_ADDR_INDEX)
T08E8 15873:021.939   Value=0xE0002000
T08E8 15873:021.955 - 0.034ms returns 0
T08E8 15873:021.968 JLINK_GetDebugInfo(0x107 = JLINKARM_DEBUG_INFO_NVIC_ADDR_INDEX)
T08E8 15873:021.980   Value=0xE000E000
T08E8 15873:021.998 - 0.035ms returns 0
T08E8 15873:022.011 JLINK_GetDebugInfo(0x10C = JLINKARM_DEBUG_INFO_DBG_ADDR_INDEX)
T08E8 15873:022.023   Value=0xE000EDF0
T08E8 15873:022.041 - 0.036ms returns 0
T08E8 15873:022.055 JLINK_GetDebugInfo(0x01 = Unknown)
T08E8 15873:022.067   Value=0x00000000
T08E8 15873:022.085 - 0.036ms returns 0
T08E8 15873:022.102 JLINK_ReadMemU32(0xE000ED00, 0x1 Items)
T08E8 15873:022.121   CPU_ReadMem(4 bytes @ 0xE000ED00)
T08E8 15873:022.526   Data:  00 C2 0C 41
T08E8 15873:022.558   Debug reg: CPUID
T08E8 15873:022.575 - 0.479ms returns 1 (0x1)
T08E8 15873:022.592 JLINK_GetDebugInfo(0x10F = JLINKARM_DEBUG_INFO_HAS_CORTEX_M_SECURITY_EXT_INDEX)
T08E8 15873:022.605   Value=0x00000000
T08E8 15873:022.622 - 0.035ms returns 0
T08E8 15873:022.635 JLINK_HasError()
T08E8 15873:022.652 JLINK_SetResetType(JLINKARM_CM3_RESET_TYPE_NORMAL)
T08E8 15873:022.707 - 0.064ms returns JLINKARM_CM3_RESET_TYPE_NORMAL
T08E8 15873:022.730 JLINK_Reset()
T08E8 15873:022.790   CPU is running
T08E8 15873:022.816   CPU_WriteMem(4 bytes @ 0xE000EDF0)
T08E8 15873:023.170   CPU is running
T08E8 15873:023.203   CPU_WriteMem(4 bytes @ 0xE000EDFC)
T08E8 15873:027.450   Reset: Halt core after reset via DEMCR.VC_CORERESET.
T08E8 15873:031.093   Reset: Reset device via AIRCR.SYSRESETREQ.
T08E8 15873:031.127   CPU is running
T08E8 15873:031.152   CPU_WriteMem(4 bytes @ 0xE000ED0C)
T08E8 15873:084.804   CPU_ReadMem(4 bytes @ 0xE000EDF0)
T08E8 15873:085.171   CPU_ReadMem(4 bytes @ 0xE000EDF0)
T08E8 15873:085.517   CPU is running
T08E8 15873:085.557   CPU_WriteMem(4 bytes @ 0xE000EDF0)
T08E8 15873:085.938   CPU is running
T08E8 15873:085.959   CPU_WriteMem(4 bytes @ 0xE000EDFC)
T08E8 15873:091.335   CPU_ReadMem(4 bytes @ 0xE000EDF0)
T08E8 15873:093.525   CPU_WriteMem(4 bytes @ 0xE0002000)
T08E8 15873:093.903   CPU_ReadMem(4 bytes @ 0xE000EDFC)
T08E8 15873:094.283   CPU_ReadMem(4 bytes @ 0xE0001000)
T08E8 15873:094.655   CPU_WriteMem(4 bytes @ 0xE0001000)
T08E8 15873:094.970 - 72.251ms
T08E8 15873:095.003 JLINK_Halt()
T08E8 15873:095.013 - 0.014ms returns 0x00
T08E8 15873:095.024 JLINK_ReadMemU32(0xE000EDF0, 0x1 Items)
T08E8 15873:095.039   CPU_ReadMem(4 bytes @ 0xE000EDF0)
T08E8 15873:095.443   Data:  03 00 03 00
T08E8 15873:095.508   Debug reg: DHCSR
T08E8 15873:095.570 - 0.551ms returns 1 (0x1)
T08E8 15873:095.586 JLINK_WriteU32_64(0xE000EDF0, 0xA05F0003)
T08E8 15873:095.597   Debug reg: DHCSR
T08E8 15873:095.946   CPU_WriteMem(4 bytes @ 0xE000EDF0)
T08E8 15873:096.281 - 0.707ms returns 0 (0x00000000)
T08E8 15873:096.305 JLINK_WriteU32_64(0xE000EDFC, 0x01000000)
T08E8 15873:096.317   Debug reg: DEMCR
T08E8 15873:096.334   CPU_WriteMem(4 bytes @ 0xE000EDFC)
T08E8 15873:096.751 - 0.457ms returns 0 (0x00000000)
T08E8 15873:105.394 JLINK_GetHWStatus(...)
T08E8 15873:105.632 - 0.250ms returns 0
T08E8 15873:112.183 JLINK_GetNumBPUnits(Type = 0xFFFFFF00)
T08E8 15873:112.212 - 0.034ms returns 0x04
T08E8 15873:112.224 JLINK_GetNumBPUnits(Type = 0xF0)
T08E8 15873:112.287 - 0.068ms returns 0x2000
T08E8 15873:112.303 JLINK_GetNumWPUnits()
T08E8 15873:112.314 - 0.016ms returns 2
T08E8 15873:118.585 JLINK_GetSpeed()
T08E8 15873:118.605 - 0.025ms returns 5000
T08E8 15873:123.849 JLINK_ReadMemU32(0xE000E004, 0x1 Items)
T08E8 15873:123.881   CPU_ReadMem(4 bytes @ 0xE000E004)
T08E8 15873:124.326   Data:  00 00 00 00
T08E8 15873:124.348 - 0.503ms returns 1 (0x1)
T08E8 15873:124.363 JLINK_Halt()
T08E8 15873:124.432 - 0.077ms returns 0x00
T08E8 15873:124.452 JLINK_IsHalted()
T08E8 15873:124.461 - 0.014ms returns TRUE
T08E8 15873:126.723 JLINK_WriteMem(0x20000000, 0x478 Bytes, ...)
T08E8 15873:126.739   Data:  00 BE 0A E0 0D 78 2D 06 68 40 08 24 40 00 00 D3 ...
T08E8 15873:127.094   CPU_WriteMem(1144 bytes @ 0x20000000)
T08E8 15873:130.616 - 3.907ms returns 0x478
T08E8 15873:130.660 JLINK_HasError()
T08E8 15873:130.676 JLINK_WriteReg(R0, 0x00000000)
T08E8 15873:130.689 - 0.018ms returns 0
T08E8 15873:130.701 JLINK_WriteReg(R1, 0x00F42400)
T08E8 15873:130.710 - 0.013ms returns 0
T08E8 15873:130.719 JLINK_WriteReg(R2, 0x00000001)
T08E8 15873:130.728 - 0.014ms returns 0
T08E8 15873:130.739 JLINK_WriteReg(R3, 0x00000000)
T08E8 15873:130.748 - 0.081ms returns 0
T08E8 15873:130.832 JLINK_WriteReg(R4, 0x00000000)
T08E8 15873:130.906 - 0.079ms returns 0
T08E8 15873:130.919 JLINK_WriteReg(R5, 0x00000000)
T08E8 15873:130.936 - 0.022ms returns 0
T08E8 15873:130.947 JLINK_WriteReg(R6, 0x00000000)
T08E8 15873:130.956 - 0.013ms returns 0
T08E8 15873:130.965 JLINK_WriteReg(R7, 0x00000000)
T08E8 15873:130.975 - 0.014ms returns 0
T08E8 15873:130.985 JLINK_WriteReg(R8, 0x00000000)
T08E8 15873:130.994 - 0.013ms returns 0
T08E8 15873:131.004 JLINK_WriteReg(R9, 0x20000474)
T08E8 15873:131.012 - 0.106ms returns 0
T08E8 15873:131.194 JLINK_WriteReg(R10, 0x00000000)
T08E8 15873:131.208 - 0.018ms returns 0
T08E8 15873:131.218 JLINK_WriteReg(R11, 0x00000000)
T08E8 15873:131.227 - 0.098ms returns 0
T08E8 15873:131.329 JLINK_WriteReg(R12, 0x00000000)
T08E8 15873:131.343 - 0.018ms returns 0
T08E8 15873:131.353 JLINK_WriteReg(R13 (SP), 0x20002000)
T08E8 15873:131.365 - 0.017ms returns 0
T08E8 15873:131.466 JLINK_WriteReg(R14, 0x20000001)
T08E8 15873:131.482 - 0.021ms returns 0
T08E8 15873:131.492 JLINK_WriteReg(R15 (PC), 0x20000028)
T08E8 15873:131.547 - 0.063ms returns 0
T08E8 15873:131.563 JLINK_WriteReg(XPSR, 0x01000000)
T08E8 15873:131.573 - 0.014ms returns 0
T08E8 15873:131.628 JLINK_WriteReg(MSP, 0x20002000)
T08E8 15873:131.643 - 0.019ms returns 0
T08E8 15873:131.653 JLINK_WriteReg(PSP, 0x20002000)
T08E8 15873:131.663 - 0.099ms returns 0
T08E8 15873:131.764 JLINK_WriteReg(CFBP, 0x00000000)
T08E8 15873:131.777 - 0.017ms returns 0
T08E8 15873:131.791 JLINK_SetBPEx(Addr = 0x20000000, Type = 0xFFFFFFF2)
T08E8 15873:131.806   CPU_ReadMem(2 bytes @ 0x20000000)
T08E8 15873:132.120 - 0.349ms returns 0x00000001
T08E8 15873:132.154 JLINK_Go()
T08E8 15873:132.219   CPU_WriteMem(2 bytes @ 0x20000000)
T08E8 15873:132.517   CPU_ReadMem(4 bytes @ 0xE0001000)
T08E8 15873:132.805   CPU_WriteMem(4 bytes @ 0xE0001000)
T08E8 15873:133.279   CPU_WriteMem(4 bytes @ 0xE0002008)
T08E8 15873:133.324   CPU_WriteMem(4 bytes @ 0xE000200C)
T08E8 15873:133.394   CPU_WriteMem(4 bytes @ 0xE0002010)
T08E8 15873:133.409   CPU_WriteMem(4 bytes @ 0xE0002014)
T08E8 15873:134.042   CPU_WriteMem(4 bytes @ 0xE0001004)
T08E8 15873:136.203 - 4.063ms
T08E8 15873:136.226 JLINK_IsHalted()
T08E8 15873:138.060   CPU_ReadMem(2 bytes @ 0x20000000)
T08E8 15873:138.409 - 2.194ms returns TRUE
T08E8 15873:138.433 JLINK_ReadReg(R15 (PC))
T08E8 15873:138.446 - 0.017ms returns 0x20000000
T08E8 15873:138.457 JLINK_ClrBPEx(BPHandle = 0x00000001)
T08E8 15873:138.466 - 0.013ms returns 0x00
T08E8 15873:138.476 JLINK_ReadReg(R0)
T08E8 15873:138.569 - 0.100ms returns 0x00000000
T08E8 15873:138.863 JLINK_HasError()
T08E8 15873:138.881 JLINK_WriteReg(R0, 0x00018000)
T08E8 15873:138.892 - 0.015ms returns 0
T08E8 15873:138.902 JLINK_WriteReg(R1, 0x00000400)
T08E8 15873:138.986 - 0.089ms returns 0
T08E8 15873:138.998 JLINK_WriteReg(R2, 0x000000FF)
T08E8 15873:139.007 - 0.013ms returns 0
T08E8 15873:139.017 JLINK_WriteReg(R3, 0x00000000)
T08E8 15873:139.025 - 0.012ms returns 0
T08E8 15873:139.034 JLINK_WriteReg(R4, 0x00000000)
T08E8 15873:139.043 - 0.012ms returns 0
T08E8 15873:139.052 JLINK_WriteReg(R5, 0x00000000)
T08E8 15873:139.060 - 0.012ms returns 0
T08E8 15873:139.069 JLINK_WriteReg(R6, 0x00000000)
T08E8 15873:139.078 - 0.012ms returns 0
T08E8 15873:139.087 JLINK_WriteReg(R7, 0x00000000)
T08E8 15873:139.096 - 0.013ms returns 0
T08E8 15873:139.105 JLINK_WriteReg(R8, 0x00000000)
T08E8 15873:139.114 - 0.012ms returns 0
T08E8 15873:139.123 JLINK_WriteReg(R9, 0x20000474)
T08E8 15873:139.131 - 0.012ms returns 0
T08E8 15873:139.140 JLINK_WriteReg(R10, 0x00000000)
T08E8 15873:139.149 - 0.012ms returns 0
T08E8 15873:139.158 JLINK_WriteReg(R11, 0x00000000)
T08E8 15873:139.167 - 0.012ms returns 0
T08E8 15873:139.176 JLINK_WriteReg(R12, 0x00000000)
T08E8 15873:139.184 - 0.012ms returns 0
T08E8 15873:139.193 JLINK_WriteReg(R13 (SP), 0x20002000)
T08E8 15873:139.204 - 0.015ms returns 0
T08E8 15873:139.213 JLINK_WriteReg(R14, 0x20000001)
T08E8 15873:139.222 - 0.012ms returns 0
T08E8 15873:139.231 JLINK_WriteReg(R15 (PC), 0x20000188)
T08E8 15873:139.240 - 0.013ms returns 0
T08E8 15873:139.250 JLINK_WriteReg(XPSR, 0x01000000)
T08E8 15873:139.258 - 0.013ms returns 0
T08E8 15873:139.268 JLINK_WriteReg(MSP, 0x20002000)
T08E8 15873:139.276 - 0.012ms returns 0
T08E8 15873:139.285 JLINK_WriteReg(PSP, 0x20002000)
T08E8 15873:139.294 - 0.012ms returns 0
T08E8 15873:139.303 JLINK_WriteReg(CFBP, 0x00000000)
T08E8 15873:139.311 - 0.012ms returns 0
T08E8 15873:139.321 JLINK_SetBPEx(Addr = 0x20000000, Type = 0xFFFFFFF2)
T08E8 15873:139.331 - 0.014ms returns 0x00000002
T08E8 15873:139.340 JLINK_Go()
T08E8 15873:139.355   CPU_ReadMem(4 bytes @ 0xE0001000)
T08E8 15873:141.466 - 2.140ms
T08E8 15873:141.489 JLINK_IsHalted()
T08E8 15873:143.283   CPU_ReadMem(2 bytes @ 0x20000000)
T08E8 15873:143.591 - 2.113ms returns TRUE
T08E8 15873:143.612 JLINK_ReadReg(R15 (PC))
T08E8 15873:143.703 - 0.099ms returns 0x20000000
T08E8 15873:143.719 JLINK_ClrBPEx(BPHandle = 0x00000002)
T08E8 15873:143.729 - 0.014ms returns 0x00
T08E8 15873:143.741 JLINK_ReadReg(R0)
T08E8 15873:143.751 - 0.014ms returns 0x00000001
T08E8 15873:143.761 JLINK_HasError()
T08E8 15873:143.771 JLINK_WriteReg(R0, 0x00018000)
T08E8 15873:143.841 - 0.077ms returns 0
T08E8 15873:143.922 JLINK_WriteReg(R1, 0x00000400)
T08E8 15873:143.935 - 0.017ms returns 0
T08E8 15873:143.945 JLINK_WriteReg(R2, 0x000000FF)
T08E8 15873:144.055 - 0.115ms returns 0
T08E8 15873:144.135 JLINK_WriteReg(R3, 0x00000000)
T08E8 15873:144.199 - 0.069ms returns 0
T08E8 15873:144.211 JLINK_WriteReg(R4, 0x00000000)
T08E8 15873:144.226 - 0.019ms returns 0
T08E8 15873:144.237 JLINK_WriteReg(R5, 0x00000000)
T08E8 15873:144.246 - 0.072ms returns 0
T08E8 15873:144.321 JLINK_WriteReg(R6, 0x00000000)
T08E8 15873:144.332 - 0.016ms returns 0
T08E8 15873:144.343 JLINK_WriteReg(R7, 0x00000000)
T08E8 15873:144.353 - 0.014ms returns 0
T08E8 15873:144.380 JLINK_WriteReg(R8, 0x00000000)
T08E8 15873:144.391 - 0.018ms returns 0
T08E8 15873:144.404 JLINK_WriteReg(R9, 0x20000474)
T08E8 15873:144.418 - 0.019ms returns 0
T08E8 15873:144.429 JLINK_WriteReg(R10, 0x00000000)
T08E8 15873:144.444 - 0.019ms returns 0
T08E8 15873:144.454 JLINK_WriteReg(R11, 0x00000000)
T08E8 15873:144.465 - 0.015ms returns 0
T08E8 15873:144.475 JLINK_WriteReg(R12, 0x00000000)
T08E8 15873:144.484 - 0.013ms returns 0
T08E8 15873:144.493 JLINK_WriteReg(R13 (SP), 0x20002000)
T08E8 15873:144.502 - 0.013ms returns 0
T08E8 15873:144.512 JLINK_WriteReg(R14, 0x20000001)
T08E8 15873:144.521 - 0.013ms returns 0
T08E8 15873:144.530 JLINK_WriteReg(R15 (PC), 0x20000104)
T08E8 15873:144.538 - 0.013ms returns 0
T08E8 15873:144.549 JLINK_WriteReg(XPSR, 0x01000000)
T08E8 15873:144.680 - 0.208ms returns 0
T08E8 15873:144.770 JLINK_WriteReg(MSP, 0x20002000)
T08E8 15873:144.846 - 0.152ms returns 0
T08E8 15873:144.932 JLINK_WriteReg(PSP, 0x20002000)
T08E8 15873:144.943 - 0.015ms returns 0
T08E8 15873:144.958 JLINK_WriteReg(CFBP, 0x00000000)
T08E8 15873:144.972 - 0.018ms returns 0
T08E8 15873:144.989 JLINK_SetBPEx(Addr = 0x20000000, Type = 0xFFFFFFF2)
T08E8 15873:145.000 - 0.014ms returns 0x00000003
T08E8 15873:145.009 JLINK_Go()
T08E8 15873:145.024   CPU_ReadMem(4 bytes @ 0xE0001000)
T08E8 15873:146.951 - 1.954ms
T08E8 15873:146.972 JLINK_IsHalted()
T08E8 15873:147.292 - 0.331ms returns FALSE
T08E8 15873:147.312 JLINK_HasError()
T08E8 15873:163.143 JLINK_IsHalted()
T08E8 15873:163.567 - 0.437ms returns FALSE
T08E8 15873:163.590 JLINK_HasError()
T08E8 15873:165.168 JLINK_IsHalted()
T08E8 15873:165.490 - 0.333ms returns FALSE
T08E8 15873:165.553 JLINK_HasError()
T08E8 15873:167.184 JLINK_IsHalted()
T08E8 15873:169.036   CPU_ReadMem(2 bytes @ 0x20000000)
T08E8 15873:169.432 - 2.260ms returns TRUE
T08E8 15873:169.455 JLINK_ReadReg(R15 (PC))
T08E8 15873:169.467 - 0.017ms returns 0x20000000
T08E8 15873:169.478 JLINK_ClrBPEx(BPHandle = 0x00000003)
T08E8 15873:169.487 - 0.013ms returns 0x00
T08E8 15873:169.544 JLINK_ReadReg(R0)
T08E8 15873:169.568 - 0.030ms returns 0x00000000
T08E8 15873:169.998 JLINK_HasError()
T08E8 15873:170.017 JLINK_WriteReg(R0, 0x00018400)
T08E8 15873:170.044 - 0.033ms returns 0
T08E8 15873:170.058 JLINK_WriteReg(R1, 0x00000400)
T08E8 15873:170.074 - 0.021ms returns 0
T08E8 15873:170.085 JLINK_WriteReg(R2, 0x000000FF)
T08E8 15873:170.097 - 0.015ms returns 0
T08E8 15873:170.106 JLINK_WriteReg(R3, 0x00000000)
T08E8 15873:170.120 - 0.018ms returns 0
T08E8 15873:170.130 JLINK_WriteReg(R4, 0x00000000)
T08E8 15873:170.174 - 0.052ms returns 0
T08E8 15873:170.190 JLINK_WriteReg(R5, 0x00000000)
T08E8 15873:170.200 - 0.013ms returns 0
T08E8 15873:170.209 JLINK_WriteReg(R6, 0x00000000)
T08E8 15873:170.218 - 0.013ms returns 0
T08E8 15873:170.227 JLINK_WriteReg(R7, 0x00000000)
T08E8 15873:170.236 - 0.012ms returns 0
T08E8 15873:170.245 JLINK_WriteReg(R8, 0x00000000)
T08E8 15873:170.254 - 0.012ms returns 0
T08E8 15873:170.263 JLINK_WriteReg(R9, 0x20000474)
T08E8 15873:170.275 - 0.016ms returns 0
T08E8 15873:170.285 JLINK_WriteReg(R10, 0x00000000)
T08E8 15873:170.293 - 0.012ms returns 0
T08E8 15873:170.302 JLINK_WriteReg(R11, 0x00000000)
T08E8 15873:170.311 - 0.012ms returns 0
T08E8 15873:170.320 JLINK_WriteReg(R12, 0x00000000)
T08E8 15873:170.329 - 0.013ms returns 0
T08E8 15873:170.338 JLINK_WriteReg(R13 (SP), 0x20002000)
T08E8 15873:170.348 - 0.013ms returns 0
T08E8 15873:170.357 JLINK_WriteReg(R14, 0x20000001)
T08E8 15873:170.366 - 0.013ms returns 0
T08E8 15873:170.375 JLINK_WriteReg(R15 (PC), 0x20000188)
T08E8 15873:170.384 - 0.013ms returns 0
T08E8 15873:170.393 JLINK_WriteReg(XPSR, 0x01000000)
T08E8 15873:170.402 - 0.013ms returns 0
T08E8 15873:170.411 JLINK_WriteReg(MSP, 0x20002000)
T08E8 15873:170.420 - 0.013ms returns 0
T08E8 15873:170.430 JLINK_WriteReg(PSP, 0x20002000)
T08E8 15873:170.438 - 0.012ms returns 0
T08E8 15873:170.448 JLINK_WriteReg(CFBP, 0x00000000)
T08E8 15873:170.456 - 0.012ms returns 0
T08E8 15873:170.465 JLINK_SetBPEx(Addr = 0x20000000, Type = 0xFFFFFFF2)
T08E8 15873:170.476 - 0.014ms returns 0x00000004
T08E8 15873:170.486 JLINK_Go()
T08E8 15873:170.502   CPU_ReadMem(4 bytes @ 0xE0001000)
T08E8 15873:172.505 - 2.031ms
T08E8 15873:172.526 JLINK_IsHalted()
T08E8 15873:174.356   CPU_ReadMem(2 bytes @ 0x20000000)
T08E8 15873:174.712 - 2.198ms returns TRUE
T08E8 15873:174.735 JLINK_ReadReg(R15 (PC))
T08E8 15873:174.746 - 0.015ms returns 0x20000000
T08E8 15873:174.756 JLINK_ClrBPEx(BPHandle = 0x00000004)
T08E8 15873:174.766 - 0.013ms returns 0x00
T08E8 15873:174.775 JLINK_ReadReg(R0)
T08E8 15873:174.784 - 0.012ms returns 0x00000001
T08E8 15873:174.794 JLINK_HasError()
T08E8 15873:174.803 JLINK_WriteReg(R0, 0x00018400)
T08E8 15873:174.813 - 0.013ms returns 0
T08E8 15873:174.823 JLINK_WriteReg(R1, 0x00000400)
T08E8 15873:174.832 - 0.012ms returns 0
T08E8 15873:174.841 JLINK_WriteReg(R2, 0x000000FF)
T08E8 15873:174.850 - 0.012ms returns 0
T08E8 15873:174.859 JLINK_WriteReg(R3, 0x00000000)
T08E8 15873:174.867 - 0.012ms returns 0
T08E8 15873:174.877 JLINK_WriteReg(R4, 0x00000000)
T08E8 15873:174.886 - 0.012ms returns 0
T08E8 15873:174.895 JLINK_WriteReg(R5, 0x00000000)
T08E8 15873:174.903 - 0.012ms returns 0
T08E8 15873:174.912 JLINK_WriteReg(R6, 0x00000000)
T08E8 15873:174.921 - 0.012ms returns 0
T08E8 15873:174.930 JLINK_WriteReg(R7, 0x00000000)
T08E8 15873:174.939 - 0.012ms returns 0
T08E8 15873:174.948 JLINK_WriteReg(R8, 0x00000000)
T08E8 15873:174.957 - 0.013ms returns 0
T08E8 15873:174.966 JLINK_WriteReg(R9, 0x20000474)
T08E8 15873:174.975 - 0.012ms returns 0
T08E8 15873:174.985 JLINK_WriteReg(R10, 0x00000000)
T08E8 15873:174.993 - 0.012ms returns 0
T08E8 15873:175.004 JLINK_WriteReg(R11, 0x00000000)
T08E8 15873:175.012 - 0.012ms returns 0
T08E8 15873:175.022 JLINK_WriteReg(R12, 0x00000000)
T08E8 15873:175.031 - 0.012ms returns 0
T08E8 15873:175.041 JLINK_WriteReg(R13 (SP), 0x20002000)
T08E8 15873:175.050 - 0.013ms returns 0
T08E8 15873:175.060 JLINK_WriteReg(R14, 0x20000001)
T08E8 15873:175.069 - 0.012ms returns 0
T08E8 15873:175.079 JLINK_WriteReg(R15 (PC), 0x20000104)
T08E8 15873:175.088 - 0.012ms returns 0
T08E8 15873:175.098 JLINK_WriteReg(XPSR, 0x01000000)
T08E8 15873:175.109 - 0.014ms returns 0
T08E8 15873:175.118 JLINK_WriteReg(MSP, 0x20002000)
T08E8 15873:175.127 - 0.012ms returns 0
T08E8 15873:175.136 JLINK_WriteReg(PSP, 0x20002000)
T08E8 15873:175.145 - 0.012ms returns 0
T08E8 15873:175.154 JLINK_WriteReg(CFBP, 0x00000000)
T08E8 15873:175.162 - 0.012ms returns 0
T08E8 15873:175.235 JLINK_SetBPEx(Addr = 0x20000000, Type = 0xFFFFFFF2)
T08E8 15873:175.254 - 0.024ms returns 0x00000005
T08E8 15873:175.265 JLINK_Go()
T08E8 15873:175.279   CPU_ReadMem(4 bytes @ 0xE0001000)
T08E8 15873:177.242 - 1.989ms
T08E8 15873:177.262 JLINK_IsHalted()
T08E8 15873:177.584 - 0.334ms returns FALSE
T08E8 15873:177.604 JLINK_HasError()
T08E8 15873:179.147 JLINK_IsHalted()
T08E8 15873:179.535 - 0.401ms returns FALSE
T08E8 15873:179.556 JLINK_HasError()
T08E8 15873:181.123 JLINK_IsHalted()
T08E8 15873:181.474 - 0.364ms returns FALSE
T08E8 15873:181.496 JLINK_HasError()
T08E8 15873:183.122 JLINK_IsHalted()
T08E8 15873:183.422 - 0.313ms returns FALSE
T08E8 15873:183.443 JLINK_HasError()
T08E8 15873:185.113 JLINK_IsHalted()
T08E8 15873:185.428 - 0.328ms returns FALSE
T08E8 15873:185.450 JLINK_HasError()
T08E8 15873:187.107 JLINK_IsHalted()
T08E8 15873:187.470 - 0.375ms returns FALSE
T08E8 15873:187.491 JLINK_HasError()
T08E8 15873:189.127 JLINK_IsHalted()
T08E8 15873:189.425 - 0.310ms returns FALSE
T08E8 15873:189.446 JLINK_HasError()
T08E8 15873:191.097 JLINK_IsHalted()
T08E8 15873:191.435 - 0.350ms returns FALSE
T08E8 15873:191.456 JLINK_HasError()
T08E8 15873:193.093 JLINK_IsHalted()
T08E8 15873:193.413 - 0.332ms returns FALSE
T08E8 15873:193.434 JLINK_HasError()
T08E8 15873:195.093 JLINK_IsHalted()
T08E8 15873:195.441 - 0.360ms returns FALSE
T08E8 15873:195.461 JLINK_HasError()
T08E8 15873:197.082 JLINK_IsHalted()
T08E8 15873:198.916   CPU_ReadMem(2 bytes @ 0x20000000)
T08E8 15873:199.297 - 2.226ms returns TRUE
T08E8 15873:199.316 JLINK_ReadReg(R15 (PC))
T08E8 15873:199.327 - 0.015ms returns 0x20000000
T08E8 15873:199.337 JLINK_ClrBPEx(BPHandle = 0x00000005)
T08E8 15873:199.346 - 0.013ms returns 0x00
T08E8 15873:199.356 JLINK_ReadReg(R0)
T08E8 15873:199.364 - 0.012ms returns 0x00000000
T08E8 15873:199.764 JLINK_HasError()
T08E8 15873:199.780 JLINK_WriteReg(R0, 0x00018800)
T08E8 15873:199.791 - 0.014ms returns 0
T08E8 15873:199.801 JLINK_WriteReg(R1, 0x00000400)
T08E8 15873:199.809 - 0.013ms returns 0
T08E8 15873:199.863 JLINK_WriteReg(R2, 0x000000FF)
T08E8 15873:199.878 - 0.020ms returns 0
T08E8 15873:199.888 JLINK_WriteReg(R3, 0x00000000)
T08E8 15873:199.897 - 0.013ms returns 0
T08E8 15873:199.907 JLINK_WriteReg(R4, 0x00000000)
T08E8 15873:199.918 - 0.015ms returns 0
T08E8 15873:199.928 JLINK_WriteReg(R5, 0x00000000)
T08E8 15873:199.938 - 0.014ms returns 0
T08E8 15873:199.949 JLINK_WriteReg(R6, 0x00000000)
T08E8 15873:199.958 - 0.012ms returns 0
T08E8 15873:199.967 JLINK_WriteReg(R7, 0x00000000)
T08E8 15873:199.975 - 0.012ms returns 0
T08E8 15873:199.985 JLINK_WriteReg(R8, 0x00000000)
T08E8 15873:199.994 - 0.013ms returns 0
T08E8 15873:200.003 JLINK_WriteReg(R9, 0x20000474)
T08E8 15873:200.012 - 0.012ms returns 0
T08E8 15873:200.069 JLINK_WriteReg(R10, 0x00000000)
T08E8 15873:200.084 - 0.019ms returns 0
T08E8 15873:200.095 JLINK_WriteReg(R11, 0x00000000)
T08E8 15873:200.106 - 0.015ms returns 0
T08E8 15873:200.116 JLINK_WriteReg(R12, 0x00000000)
T08E8 15873:200.125 - 0.012ms returns 0
T08E8 15873:200.134 JLINK_WriteReg(R13 (SP), 0x20002000)
T08E8 15873:200.190 - 0.063ms returns 0
T08E8 15873:200.205 JLINK_WriteReg(R14, 0x20000001)
T08E8 15873:200.214 - 0.013ms returns 0
T08E8 15873:200.223 JLINK_WriteReg(R15 (PC), 0x20000188)
T08E8 15873:200.232 - 0.012ms returns 0
T08E8 15873:200.241 JLINK_WriteReg(XPSR, 0x01000000)
T08E8 15873:200.250 - 0.012ms returns 0
T08E8 15873:200.259 JLINK_WriteReg(MSP, 0x20002000)
T08E8 15873:200.268 - 0.012ms returns 0
T08E8 15873:200.277 JLINK_WriteReg(PSP, 0x20002000)
T08E8 15873:200.285 - 0.012ms returns 0
T08E8 15873:200.294 JLINK_WriteReg(CFBP, 0x00000000)
T08E8 15873:200.303 - 0.012ms returns 0
T08E8 15873:200.312 JLINK_SetBPEx(Addr = 0x20000000, Type = 0xFFFFFFF2)
T08E8 15873:200.322 - 0.013ms returns 0x00000006
T08E8 15873:200.331 JLINK_Go()
T08E8 15873:200.346   CPU_ReadMem(4 bytes @ 0xE0001000)
T08E8 15873:202.375 - 2.057ms
T08E8 15873:202.398 JLINK_IsHalted()
T08E8 15873:204.225   CPU_ReadMem(2 bytes @ 0x20000000)
T08E8 15873:204.638 - 2.253ms returns TRUE
T08E8 15873:204.661 JLINK_ReadReg(R15 (PC))
T08E8 15873:204.672 - 0.015ms returns 0x20000000
T08E8 15873:204.682 JLINK_ClrBPEx(BPHandle = 0x00000006)
T08E8 15873:204.710 - 0.034ms returns 0x00
T08E8 15873:204.727 JLINK_ReadReg(R0)
T08E8 15873:204.830 - 0.108ms returns 0x00000001
T08E8 15873:204.845 JLINK_HasError()
T08E8 15873:204.856 JLINK_WriteReg(R0, 0x00018800)
T08E8 15873:204.866 - 0.015ms returns 0
T08E8 15873:204.879 JLINK_WriteReg(R1, 0x00000400)
T08E8 15873:204.938 - 0.065ms returns 0
T08E8 15873:204.953 JLINK_WriteReg(R2, 0x000000FF)
T08E8 15873:204.962 - 0.014ms returns 0
T08E8 15873:204.972 JLINK_WriteReg(R3, 0x00000000)
T08E8 15873:204.981 - 0.014ms returns 0
T08E8 15873:204.992 JLINK_WriteReg(R4, 0x00000000)
T08E8 15873:205.001 - 0.013ms returns 0
T08E8 15873:205.061 JLINK_WriteReg(R5, 0x00000000)
T08E8 15873:205.074 - 0.018ms returns 0
T08E8 15873:205.086 JLINK_WriteReg(R6, 0x00000000)
T08E8 15873:205.095 - 0.013ms returns 0
T08E8 15873:205.106 JLINK_WriteReg(R7, 0x00000000)
T08E8 15873:205.114 - 0.012ms returns 0
T08E8 15873:205.125 JLINK_WriteReg(R8, 0x00000000)
T08E8 15873:205.133 - 0.012ms returns 0
T08E8 15873:205.142 JLINK_WriteReg(R9, 0x20000474)
T08E8 15873:205.151 - 0.012ms returns 0
T08E8 15873:205.161 JLINK_WriteReg(R10, 0x00000000)
T08E8 15873:205.170 - 0.012ms returns 0
T08E8 15873:205.227 JLINK_WriteReg(R11, 0x00000000)
T08E8 15873:205.242 - 0.019ms returns 0
T08E8 15873:205.252 JLINK_WriteReg(R12, 0x00000000)
T08E8 15873:205.263 - 0.015ms returns 0
T08E8 15873:205.273 JLINK_WriteReg(R13 (SP), 0x20002000)
T08E8 15873:205.282 - 0.013ms returns 0
T08E8 15873:205.292 JLINK_WriteReg(R14, 0x20000001)
T08E8 15873:205.364 - 0.078ms returns 0
T08E8 15873:205.379 JLINK_WriteReg(R15 (PC), 0x20000104)
T08E8 15873:205.389 - 0.014ms returns 0
T08E8 15873:205.399 JLINK_WriteReg(XPSR, 0x01000000)
T08E8 15873:205.407 - 0.013ms returns 0
T08E8 15873:205.464 JLINK_WriteReg(MSP, 0x20002000)
T08E8 15873:205.479 - 0.019ms returns 0
T08E8 15873:205.489 JLINK_WriteReg(PSP, 0x20002000)
T08E8 15873:205.498 - 0.013ms returns 0
T08E8 15873:205.509 JLINK_WriteReg(CFBP, 0x00000000)
T08E8 15873:205.517 - 0.012ms returns 0
T08E8 15873:205.528 JLINK_SetBPEx(Addr = 0x20000000, Type = 0xFFFFFFF2)
T08E8 15873:205.537 - 0.014ms returns 0x00000007
T08E8 15873:205.547 JLINK_Go()
T08E8 15873:205.561   CPU_ReadMem(4 bytes @ 0xE0001000)
T08E8 15873:207.591 - 2.056ms
T08E8 15873:207.613 JLINK_IsHalted()
T08E8 15873:207.911 - 0.351ms returns FALSE
T08E8 15873:207.978 JLINK_HasError()
T08E8 15873:209.803 JLINK_IsHalted()
T08E8 15873:210.091 - 0.301ms returns FALSE
T08E8 15873:210.113 JLINK_HasError()
T08E8 15873:211.770 JLINK_IsHalted()
T08E8 15873:212.112 - 0.353ms returns FALSE
T08E8 15873:212.132 JLINK_HasError()
T08E8 15873:214.729 JLINK_IsHalted()
T08E8 15873:215.130 - 0.412ms returns FALSE
T08E8 15873:215.193 JLINK_HasError()
T08E8 15873:216.730 JLINK_IsHalted()
T08E8 15873:217.109 - 0.392ms returns FALSE
T08E8 15873:217.131 JLINK_HasError()
T08E8 15873:218.756 JLINK_IsHalted()
T08E8 15873:219.104 - 0.360ms returns FALSE
T08E8 15873:219.125 JLINK_HasError()
T08E8 15873:220.760 JLINK_IsHalted()
T08E8 15873:221.088 - 0.340ms returns FALSE
T08E8 15873:221.109 JLINK_HasError()
T08E8 15873:222.743 JLINK_IsHalted()
T08E8 15873:223.056 - 0.327ms returns FALSE
T08E8 15873:223.080 JLINK_HasError()
T08E8 15873:224.737 JLINK_IsHalted()
T08E8 15873:225.063 - 0.339ms returns FALSE
T08E8 15873:225.085 JLINK_HasError()
T08E8 15873:226.731 JLINK_IsHalted()
T08E8 15873:228.560   CPU_ReadMem(2 bytes @ 0x20000000)
T08E8 15873:228.917 - 2.200ms returns TRUE
T08E8 15873:228.941 JLINK_ReadReg(R15 (PC))
T08E8 15873:228.953 - 0.017ms returns 0x20000000
T08E8 15873:229.000 JLINK_ClrBPEx(BPHandle = 0x00000007)
T08E8 15873:229.015 - 0.020ms returns 0x00
T08E8 15873:229.027 JLINK_ReadReg(R0)
T08E8 15873:229.038 - 0.015ms returns 0x00000000
T08E8 15873:229.477 JLINK_HasError()
T08E8 15873:229.496 JLINK_WriteReg(R0, 0x00018C00)
T08E8 15873:229.508 - 0.016ms returns 0
T08E8 15873:229.519 JLINK_WriteReg(R1, 0x00000400)
T08E8 15873:229.529 - 0.015ms returns 0
T08E8 15873:229.540 JLINK_WriteReg(R2, 0x000000FF)
T08E8 15873:229.549 - 0.014ms returns 0
T08E8 15873:229.560 JLINK_WriteReg(R3, 0x00000000)
T08E8 15873:229.570 - 0.014ms returns 0
T08E8 15873:229.580 JLINK_WriteReg(R4, 0x00000000)
T08E8 15873:229.590 - 0.015ms returns 0
T08E8 15873:229.601 JLINK_WriteReg(R5, 0x00000000)
T08E8 15873:229.650 - 0.057ms returns 0
T08E8 15873:229.665 JLINK_WriteReg(R6, 0x00000000)
T08E8 15873:229.675 - 0.020ms returns 0
T08E8 15873:229.692 JLINK_WriteReg(R7, 0x00000000)
T08E8 15873:229.701 - 0.014ms returns 0
T08E8 15873:229.711 JLINK_WriteReg(R8, 0x00000000)
T08E8 15873:229.721 - 0.014ms returns 0
T08E8 15873:229.732 JLINK_WriteReg(R9, 0x20000474)
T08E8 15873:229.742 - 0.014ms returns 0
T08E8 15873:229.752 JLINK_WriteReg(R10, 0x00000000)
T08E8 15873:229.762 - 0.014ms returns 0
T08E8 15873:229.772 JLINK_WriteReg(R11, 0x00000000)
T08E8 15873:229.782 - 0.014ms returns 0
T08E8 15873:229.792 JLINK_WriteReg(R12, 0x00000000)
T08E8 15873:229.802 - 0.014ms returns 0
T08E8 15873:229.813 JLINK_WriteReg(R13 (SP), 0x20002000)
T08E8 15873:229.823 - 0.015ms returns 0
T08E8 15873:229.834 JLINK_WriteReg(R14, 0x20000001)
T08E8 15873:229.843 - 0.014ms returns 0
T08E8 15873:229.853 JLINK_WriteReg(R15 (PC), 0x20000188)
T08E8 15873:229.863 - 0.014ms returns 0
T08E8 15873:229.874 JLINK_WriteReg(XPSR, 0x01000000)
T08E8 15873:229.884 - 0.014ms returns 0
T08E8 15873:229.894 JLINK_WriteReg(MSP, 0x20002000)
T08E8 15873:229.904 - 0.014ms returns 0
T08E8 15873:229.914 JLINK_WriteReg(PSP, 0x20002000)
T08E8 15873:229.923 - 0.014ms returns 0
T08E8 15873:229.934 JLINK_WriteReg(CFBP, 0x00000000)
T08E8 15873:229.943 - 0.014ms returns 0
T08E8 15873:229.954 JLINK_SetBPEx(Addr = 0x20000000, Type = 0xFFFFFFF2)
T08E8 15873:229.965 - 0.015ms returns 0x00000008
T08E8 15873:229.976 JLINK_Go()
T08E8 15873:229.993   CPU_ReadMem(4 bytes @ 0xE0001000)
T08E8 15873:232.037 - 2.073ms
T08E8 15873:232.057 JLINK_IsHalted()
T08E8 15873:233.955   CPU_ReadMem(2 bytes @ 0x20000000)
T08E8 15873:234.318 - 2.274ms returns TRUE
T08E8 15873:234.345 JLINK_ReadReg(R15 (PC))
T08E8 15873:234.356 - 0.016ms returns 0x20000000
T08E8 15873:234.368 JLINK_ClrBPEx(BPHandle = 0x00000008)
T08E8 15873:234.446 - 0.085ms returns 0x00
T08E8 15873:234.466 JLINK_ReadReg(R0)
T08E8 15873:234.477 - 0.015ms returns 0x00000001
T08E8 15873:234.489 JLINK_HasError()
T08E8 15873:234.568 JLINK_WriteReg(R0, 0x00018C00)
T08E8 15873:234.586 - 0.023ms returns 0
T08E8 15873:234.598 JLINK_WriteReg(R1, 0x00000400)
T08E8 15873:234.609 - 0.015ms returns 0
T08E8 15873:234.621 JLINK_WriteReg(R2, 0x000000FF)
T08E8 15873:234.632 - 0.133ms returns 0
T08E8 15873:234.767 JLINK_WriteReg(R3, 0x00000000)
T08E8 15873:234.845 - 0.083ms returns 0
T08E8 15873:234.906 JLINK_WriteReg(R4, 0x00000000)
T08E8 15873:234.925 - 0.023ms returns 0
T08E8 15873:234.937 JLINK_WriteReg(R5, 0x00000000)
T08E8 15873:234.948 - 0.034ms returns 0
T08E8 15873:234.985 JLINK_WriteReg(R6, 0x00000000)
T08E8 15873:234.999 - 0.020ms returns 0
T08E8 15873:235.063 JLINK_WriteReg(R7, 0x00000000)
T08E8 15873:235.084 - 0.026ms returns 0
T08E8 15873:235.100 JLINK_WriteReg(R8, 0x00000000)
T08E8 15873:235.111 - 0.016ms returns 0
T08E8 15873:235.129 JLINK_WriteReg(R9, 0x20000474)
T08E8 15873:235.140 - 0.016ms returns 0
T08E8 15873:235.151 JLINK_WriteReg(R10, 0x00000000)
T08E8 15873:235.161 - 0.014ms returns 0
T08E8 15873:235.178 JLINK_WriteReg(R11, 0x00000000)
T08E8 15873:235.194 - 0.021ms returns 0
T08E8 15873:235.205 JLINK_WriteReg(R12, 0x00000000)
T08E8 15873:235.215 - 0.014ms returns 0
T08E8 15873:235.225 JLINK_WriteReg(R13 (SP), 0x20002000)
T08E8 15873:235.235 - 0.015ms returns 0
T08E8 15873:235.247 JLINK_WriteReg(R14, 0x20000001)
T08E8 15873:235.258 - 0.015ms returns 0
T08E8 15873:235.269 JLINK_WriteReg(R15 (PC), 0x20000104)
T08E8 15873:235.280 - 0.016ms returns 0
T08E8 15873:235.293 JLINK_WriteReg(XPSR, 0x01000000)
T08E8 15873:235.303 - 0.015ms returns 0
T08E8 15873:235.314 JLINK_WriteReg(MSP, 0x20002000)
T08E8 15873:235.325 - 0.016ms returns 0
T08E8 15873:235.337 JLINK_WriteReg(PSP, 0x20002000)
T08E8 15873:235.347 - 0.014ms returns 0
T08E8 15873:235.358 JLINK_WriteReg(CFBP, 0x00000000)
T08E8 15873:235.367 - 0.018ms returns 0
T08E8 15873:235.387 JLINK_SetBPEx(Addr = 0x20000000, Type = 0xFFFFFFF2)
T08E8 15873:235.400 - 0.018ms returns 0x00000009
T08E8 15873:235.445 JLINK_Go()
T08E8 15873:235.466   CPU_ReadMem(4 bytes @ 0xE0001000)
T08E8 15873:237.525 - 2.094ms
T08E8 15873:237.603 JLINK_IsHalted()
T08E8 15873:237.892 - 0.302ms returns FALSE
T08E8 15873:237.915 JLINK_HasError()
T08E8 15873:239.712 JLINK_IsHalted()
T08E8 15873:240.031 - 0.332ms returns FALSE
T08E8 15873:240.053 JLINK_HasError()
T08E8 15873:241.715 JLINK_IsHalted()
T08E8 15873:242.071 - 0.368ms returns FALSE
T08E8 15873:242.092 JLINK_HasError()
T08E8 15873:243.718 JLINK_IsHalted()
T08E8 15873:244.059 - 0.352ms returns FALSE
T08E8 15873:244.079 JLINK_HasError()
T08E8 15873:245.752 JLINK_IsHalted()
T08E8 15873:246.088 - 0.347ms returns FALSE
T08E8 15873:246.108 JLINK_HasError()
T08E8 15873:247.745 JLINK_IsHalted()
T08E8 15873:248.081 - 0.352ms returns FALSE
T08E8 15873:248.150 JLINK_HasError()
T08E8 15873:249.741 JLINK_IsHalted()
T08E8 15873:250.044 - 0.316ms returns FALSE
T08E8 15873:250.065 JLINK_HasError()
T08E8 15873:251.751 JLINK_IsHalted()
T08E8 15873:252.123 - 0.385ms returns FALSE
T08E8 15873:252.144 JLINK_HasError()
T08E8 15873:253.736 JLINK_IsHalted()
T08E8 15873:254.091 - 0.367ms returns FALSE
T08E8 15873:254.112 JLINK_HasError()
T08E8 15873:255.731 JLINK_IsHalted()
T08E8 15873:256.111 - 0.392ms returns FALSE
T08E8 15873:256.132 JLINK_HasError()
T08E8 15873:257.722 JLINK_IsHalted()
T08E8 15873:259.533   CPU_ReadMem(2 bytes @ 0x20000000)
T08E8 15873:259.939 - 2.229ms returns TRUE
T08E8 15873:259.959 JLINK_ReadReg(R15 (PC))
T08E8 15873:259.972 - 0.018ms returns 0x20000000
T08E8 15873:259.982 JLINK_ClrBPEx(BPHandle = 0x00000009)
T08E8 15873:259.991 - 0.013ms returns 0x00
T08E8 15873:260.001 JLINK_ReadReg(R0)
T08E8 15873:260.010 - 0.013ms returns 0x00000000
T08E8 15873:260.407 JLINK_HasError()
T08E8 15873:260.426 JLINK_WriteReg(R0, 0x00019000)
T08E8 15873:260.438 - 0.016ms returns 0
T08E8 15873:260.448 JLINK_WriteReg(R1, 0x00000400)
T08E8 15873:260.457 - 0.013ms returns 0
T08E8 15873:260.514 JLINK_WriteReg(R2, 0x000000FF)
T08E8 15873:260.557 - 0.114ms returns 0
T08E8 15873:260.638 JLINK_WriteReg(R3, 0x00000000)
T08E8 15873:260.651 - 0.017ms returns 0
T08E8 15873:260.661 JLINK_WriteReg(R4, 0x00000000)
T08E8 15873:260.673 - 0.016ms returns 0
T08E8 15873:260.684 JLINK_WriteReg(R5, 0x00000000)
T08E8 15873:260.693 - 0.012ms returns 0
T08E8 15873:260.702 JLINK_WriteReg(R6, 0x00000000)
T08E8 15873:260.711 - 0.012ms returns 0
T08E8 15873:260.720 JLINK_WriteReg(R7, 0x00000000)
T08E8 15873:260.729 - 0.056ms returns 0
T08E8 15873:260.788 JLINK_WriteReg(R8, 0x00000000)
T08E8 15873:260.799 - 0.016ms returns 0
T08E8 15873:260.809 JLINK_WriteReg(R9, 0x20000474)
T08E8 15873:260.869 - 0.064ms returns 0
T08E8 15873:260.881 JLINK_WriteReg(R10, 0x00000000)
T08E8 15873:260.891 - 0.013ms returns 0
T08E8 15873:260.900 JLINK_WriteReg(R11, 0x00000000)
T08E8 15873:260.909 - 0.012ms returns 0
T08E8 15873:260.918 JLINK_WriteReg(R12, 0x00000000)
T08E8 15873:260.927 - 0.012ms returns 0
T08E8 15873:260.936 JLINK_WriteReg(R13 (SP), 0x20002000)
T08E8 15873:260.947 - 0.014ms returns 0
T08E8 15873:260.956 JLINK_WriteReg(R14, 0x20000001)
T08E8 15873:260.965 - 0.012ms returns 0
T08E8 15873:260.974 JLINK_WriteReg(R15 (PC), 0x20000188)
T08E8 15873:260.983 - 0.014ms returns 0
T08E8 15873:260.994 JLINK_WriteReg(XPSR, 0x01000000)
T08E8 15873:261.002 - 0.012ms returns 0
T08E8 15873:261.011 JLINK_WriteReg(MSP, 0x20002000)
T08E8 15873:261.020 - 0.055ms returns 0
T08E8 15873:261.079 JLINK_WriteReg(PSP, 0x20002000)
T08E8 15873:261.091 - 0.017ms returns 0
T08E8 15873:261.102 JLINK_WriteReg(CFBP, 0x00000000)
T08E8 15873:261.111 - 0.013ms returns 0
T08E8 15873:261.121 JLINK_SetBPEx(Addr = 0x20000000, Type = 0xFFFFFFF2)
T08E8 15873:261.131 - 0.014ms returns 0x0000000A
T08E8 15873:261.141 JLINK_Go()
T08E8 15873:261.158   CPU_ReadMem(4 bytes @ 0xE0001000)
T08E8 15873:263.112 - 1.982ms
T08E8 15873:263.134 JLINK_IsHalted()
T08E8 15873:264.860   CPU_ReadMem(2 bytes @ 0x20000000)
T08E8 15873:265.153 - 2.030ms returns TRUE
T08E8 15873:265.174 JLINK_ReadReg(R15 (PC))
T08E8 15873:265.187 - 0.018ms returns 0x20000000
T08E8 15873:265.198 JLINK_ClrBPEx(BPHandle = 0x0000000A)
T08E8 15873:265.208 - 0.013ms returns 0x00
T08E8 15873:265.219 JLINK_ReadReg(R0)
T08E8 15873:265.228 - 0.013ms returns 0x00000001
T08E8 15873:265.238 JLINK_HasError()
T08E8 15873:265.248 JLINK_WriteReg(R0, 0x00019000)
T08E8 15873:265.257 - 0.013ms returns 0
T08E8 15873:265.266 JLINK_WriteReg(R1, 0x00000400)
T08E8 15873:265.275 - 0.012ms returns 0
T08E8 15873:265.285 JLINK_WriteReg(R2, 0x000000FF)
T08E8 15873:265.294 - 0.012ms returns 0
T08E8 15873:265.304 JLINK_WriteReg(R3, 0x00000000)
T08E8 15873:265.312 - 0.012ms returns 0
T08E8 15873:265.322 JLINK_WriteReg(R4, 0x00000000)
T08E8 15873:265.330 - 0.012ms returns 0
T08E8 15873:265.339 JLINK_WriteReg(R5, 0x00000000)
T08E8 15873:265.348 - 0.012ms returns 0
T08E8 15873:265.357 JLINK_WriteReg(R6, 0x00000000)
T08E8 15873:265.366 - 0.012ms returns 0
T08E8 15873:265.375 JLINK_WriteReg(R7, 0x00000000)
T08E8 15873:265.384 - 0.012ms returns 0
T08E8 15873:265.393 JLINK_WriteReg(R8, 0x00000000)
T08E8 15873:265.401 - 0.012ms returns 0
T08E8 15873:265.410 JLINK_WriteReg(R9, 0x20000474)
T08E8 15873:265.419 - 0.012ms returns 0
T08E8 15873:265.429 JLINK_WriteReg(R10, 0x00000000)
T08E8 15873:265.437 - 0.012ms returns 0
T08E8 15873:265.446 JLINK_WriteReg(R11, 0x00000000)
T08E8 15873:265.455 - 0.012ms returns 0
T08E8 15873:265.464 JLINK_WriteReg(R12, 0x00000000)
T08E8 15873:265.472 - 0.012ms returns 0
T08E8 15873:265.482 JLINK_WriteReg(R13 (SP), 0x20002000)
T08E8 15873:265.491 - 0.012ms returns 0
T08E8 15873:265.500 JLINK_WriteReg(R14, 0x20000001)
T08E8 15873:265.509 - 0.012ms returns 0
T08E8 15873:265.518 JLINK_WriteReg(R15 (PC), 0x20000104)
T08E8 15873:265.527 - 0.012ms returns 0
T08E8 15873:265.536 JLINK_WriteReg(XPSR, 0x01000000)
T08E8 15873:265.545 - 0.012ms returns 0
T08E8 15873:265.555 JLINK_WriteReg(MSP, 0x20002000)
T08E8 15873:265.564 - 0.013ms returns 0
T08E8 15873:265.574 JLINK_WriteReg(PSP, 0x20002000)
T08E8 15873:265.582 - 0.012ms returns 0
T08E8 15873:265.591 JLINK_WriteReg(CFBP, 0x00000000)
T08E8 15873:265.600 - 0.012ms returns 0
T08E8 15873:265.609 JLINK_SetBPEx(Addr = 0x20000000, Type = 0xFFFFFFF2)
T08E8 15873:265.619 - 0.013ms returns 0x0000000B
T08E8 15873:265.628 JLINK_Go()
T08E8 15873:265.642   CPU_ReadMem(4 bytes @ 0xE0001000)
T08E8 15873:267.575 - 1.958ms
T08E8 15873:267.597 JLINK_IsHalted()
T08E8 15873:267.899 - 0.313ms returns FALSE
T08E8 15873:267.920 JLINK_HasError()
T08E8 15873:269.498 JLINK_IsHalted()
T08E8 15873:269.798 - 0.315ms returns FALSE
T08E8 15873:269.821 JLINK_HasError()
T08E8 15873:271.504 JLINK_IsHalted()
T08E8 15873:271.852 - 0.360ms returns FALSE
T08E8 15873:271.872 JLINK_HasError()
T08E8 15873:273.503 JLINK_IsHalted()
T08E8 15873:273.831 - 0.339ms returns FALSE
T08E8 15873:273.851 JLINK_HasError()
T08E8 15873:275.492 JLINK_IsHalted()
T08E8 15873:275.834 - 0.354ms returns FALSE
T08E8 15873:275.855 JLINK_HasError()
T08E8 15873:277.511 JLINK_IsHalted()
T08E8 15873:277.872 - 0.372ms returns FALSE
T08E8 15873:277.892 JLINK_HasError()
T08E8 15873:279.482 JLINK_IsHalted()
T08E8 15873:279.838 - 0.369ms returns FALSE
T08E8 15873:279.859 JLINK_HasError()
T08E8 15873:281.502 JLINK_IsHalted()
T08E8 15873:281.831 - 0.340ms returns FALSE
T08E8 15873:281.851 JLINK_HasError()
T08E8 15873:283.474 JLINK_IsHalted()
T08E8 15873:283.834 - 0.372ms returns FALSE
T08E8 15873:283.855 JLINK_HasError()
T08E8 15873:285.480 JLINK_IsHalted()
T08E8 15873:285.811 - 0.343ms returns FALSE
T08E8 15873:285.832 JLINK_HasError()
T08E8 15873:287.461 JLINK_IsHalted()
T08E8 15873:289.204   CPU_ReadMem(2 bytes @ 0x20000000)
T08E8 15873:289.601 - 2.154ms returns TRUE
T08E8 15873:289.623 JLINK_ReadReg(R15 (PC))
T08E8 15873:289.633 - 0.015ms returns 0x20000000
T08E8 15873:289.644 JLINK_ClrBPEx(BPHandle = 0x0000000B)
T08E8 15873:289.654 - 0.014ms returns 0x00
T08E8 15873:289.664 JLINK_ReadReg(R0)
T08E8 15873:289.672 - 0.012ms returns 0x00000000
T08E8 15873:290.063 JLINK_HasError()
T08E8 15873:290.080 JLINK_WriteReg(R0, 0x00019400)
T08E8 15873:290.096 - 0.021ms returns 0
T08E8 15873:290.107 JLINK_WriteReg(R1, 0x00000400)
T08E8 15873:290.116 - 0.013ms returns 0
T08E8 15873:290.126 JLINK_WriteReg(R2, 0x000000FF)
T08E8 15873:290.135 - 0.017ms returns 0
T08E8 15873:290.149 JLINK_WriteReg(R3, 0x00000000)
T08E8 15873:290.160 - 0.015ms returns 0
T08E8 15873:290.169 JLINK_WriteReg(R4, 0x00000000)
T08E8 15873:290.179 - 0.014ms returns 0
T08E8 15873:290.189 JLINK_WriteReg(R5, 0x00000000)
T08E8 15873:290.198 - 0.012ms returns 0
T08E8 15873:290.207 JLINK_WriteReg(R6, 0x00000000)
T08E8 15873:290.216 - 0.012ms returns 0
T08E8 15873:290.225 JLINK_WriteReg(R7, 0x00000000)
T08E8 15873:290.239 - 0.018ms returns 0
T08E8 15873:290.248 JLINK_WriteReg(R8, 0x00000000)
T08E8 15873:290.257 - 0.013ms returns 0
T08E8 15873:290.268 JLINK_WriteReg(R9, 0x20000474)
T08E8 15873:290.277 - 0.013ms returns 0
T08E8 15873:290.287 JLINK_WriteReg(R10, 0x00000000)
T08E8 15873:290.295 - 0.012ms returns 0
T08E8 15873:290.305 JLINK_WriteReg(R11, 0x00000000)
T08E8 15873:290.314 - 0.013ms returns 0
T08E8 15873:290.323 JLINK_WriteReg(R12, 0x00000000)
T08E8 15873:290.376 - 0.058ms returns 0
T08E8 15873:290.435 JLINK_WriteReg(R13 (SP), 0x20002000)
T08E8 15873:290.448 - 0.018ms returns 0
T08E8 15873:290.459 JLINK_WriteReg(R14, 0x20000001)
T08E8 15873:290.468 - 0.013ms returns 0
T08E8 15873:290.478 JLINK_WriteReg(R15 (PC), 0x20000188)
T08E8 15873:290.488 - 0.014ms returns 0
T08E8 15873:290.497 JLINK_WriteReg(XPSR, 0x01000000)
T08E8 15873:290.506 - 0.013ms returns 0
T08E8 15873:290.515 JLINK_WriteReg(MSP, 0x20002000)
T08E8 15873:290.524 - 0.013ms returns 0
T08E8 15873:290.548 JLINK_WriteReg(PSP, 0x20002000)
T08E8 15873:290.563 - 0.019ms returns 0
T08E8 15873:290.576 JLINK_WriteReg(CFBP, 0x00000000)
T08E8 15873:290.587 - 0.015ms returns 0
T08E8 15873:290.598 JLINK_SetBPEx(Addr = 0x20000000, Type = 0xFFFFFFF2)
T08E8 15873:290.609 - 0.014ms returns 0x0000000C
T08E8 15873:290.618 JLINK_Go()
T08E8 15873:290.633   CPU_ReadMem(4 bytes @ 0xE0001000)
T08E8 15873:292.897 - 2.291ms
T08E8 15873:292.919 JLINK_IsHalted()
T08E8 15873:294.806   CPU_ReadMem(2 bytes @ 0x20000000)
T08E8 15873:295.202 - 2.294ms returns TRUE
T08E8 15873:295.224 JLINK_ReadReg(R15 (PC))
T08E8 15873:295.304 - 0.085ms returns 0x20000000
T08E8 15873:295.318 JLINK_ClrBPEx(BPHandle = 0x0000000C)
T08E8 15873:295.329 - 0.015ms returns 0x00
T08E8 15873:295.339 JLINK_ReadReg(R0)
T08E8 15873:295.348 - 0.012ms returns 0x00000001
T08E8 15873:295.359 JLINK_HasError()
T08E8 15873:295.368 JLINK_WriteReg(R0, 0x00019400)
T08E8 15873:295.379 - 0.014ms returns 0
T08E8 15873:295.388 JLINK_WriteReg(R1, 0x00000400)
T08E8 15873:295.396 - 0.012ms returns 0
T08E8 15873:295.407 JLINK_WriteReg(R2, 0x000000FF)
T08E8 15873:295.415 - 0.012ms returns 0
T08E8 15873:295.472 JLINK_WriteReg(R3, 0x00000000)
T08E8 15873:295.487 - 0.021ms returns 0
T08E8 15873:295.505 JLINK_WriteReg(R4, 0x00000000)
T08E8 15873:295.515 - 0.013ms returns 0
T08E8 15873:295.524 JLINK_WriteReg(R5, 0x00000000)
T08E8 15873:295.534 - 0.014ms returns 0
T08E8 15873:295.544 JLINK_WriteReg(R6, 0x00000000)
T08E8 15873:295.553 - 0.012ms returns 0
T08E8 15873:295.564 JLINK_WriteReg(R7, 0x00000000)
T08E8 15873:295.572 - 0.012ms returns 0
T08E8 15873:295.581 JLINK_WriteReg(R8, 0x00000000)
T08E8 15873:295.590 - 0.012ms returns 0
T08E8 15873:295.600 JLINK_WriteReg(R9, 0x20000474)
T08E8 15873:295.608 - 0.012ms returns 0
T08E8 15873:295.618 JLINK_WriteReg(R10, 0x00000000)
T08E8 15873:295.626 - 0.012ms returns 0
T08E8 15873:295.635 JLINK_WriteReg(R11, 0x00000000)
T08E8 15873:295.644 - 0.012ms returns 0
T08E8 15873:295.654 JLINK_WriteReg(R12, 0x00000000)
T08E8 15873:295.662 - 0.012ms returns 0
T08E8 15873:295.672 JLINK_WriteReg(R13 (SP), 0x20002000)
T08E8 15873:295.681 - 0.013ms returns 0
T08E8 15873:295.690 JLINK_WriteReg(R14, 0x20000001)
T08E8 15873:295.699 - 0.012ms returns 0
T08E8 15873:295.708 JLINK_WriteReg(R15 (PC), 0x20000104)
T08E8 15873:295.716 - 0.012ms returns 0
T08E8 15873:295.726 JLINK_WriteReg(XPSR, 0x01000000)
T08E8 15873:295.738 - 0.016ms returns 0
T08E8 15873:295.747 JLINK_WriteReg(MSP, 0x20002000)
T08E8 15873:295.756 - 0.012ms returns 0
T08E8 15873:295.765 JLINK_WriteReg(PSP, 0x20002000)
T08E8 15873:295.773 - 0.012ms returns 0
T08E8 15873:295.783 JLINK_WriteReg(CFBP, 0x00000000)
T08E8 15873:295.792 - 0.012ms returns 0
T08E8 15873:295.801 JLINK_SetBPEx(Addr = 0x20000000, Type = 0xFFFFFFF2)
T08E8 15873:295.811 - 0.013ms returns 0x0000000D
T08E8 15873:295.820 JLINK_Go()
T08E8 15873:295.835   CPU_ReadMem(4 bytes @ 0xE0001000)
T08E8 15873:297.876 - 2.067ms
T08E8 15873:297.897 JLINK_IsHalted()
T08E8 15873:298.220 - 0.336ms returns FALSE
T08E8 15873:298.243 JLINK_HasError()
T08E8 15873:300.205 JLINK_IsHalted()
T08E8 15873:300.534 - 0.341ms returns FALSE
T08E8 15873:300.554 JLINK_HasError()
T08E8 15873:302.208 JLINK_IsHalted()
T08E8 15873:302.565 - 0.371ms returns FALSE
T08E8 15873:302.587 JLINK_HasError()
T08E8 15873:304.149 JLINK_IsHalted()
T08E8 15873:304.503 - 0.365ms returns FALSE
T08E8 15873:304.523 JLINK_HasError()
T08E8 15873:306.205 JLINK_IsHalted()
T08E8 15873:306.533 - 0.340ms returns FALSE
T08E8 15873:306.553 JLINK_HasError()
T08E8 15873:308.195 JLINK_IsHalted()
T08E8 15873:308.540 - 0.357ms returns FALSE
T08E8 15873:308.561 JLINK_HasError()
T08E8 15873:310.171 JLINK_IsHalted()
T08E8 15873:310.509 - 0.350ms returns FALSE
T08E8 15873:310.529 JLINK_HasError()
T08E8 15873:312.189 JLINK_IsHalted()
T08E8 15873:312.548 - 0.372ms returns FALSE
T08E8 15873:312.612 JLINK_HasError()
T08E8 15873:314.160 JLINK_IsHalted()
T08E8 15873:314.561 - 0.412ms returns FALSE
T08E8 15873:314.581 JLINK_HasError()
T08E8 15873:316.158 JLINK_IsHalted()
T08E8 15873:316.563 - 0.456ms returns FALSE
T08E8 15873:316.626 JLINK_HasError()
T08E8 15873:318.150 JLINK_IsHalted()
T08E8 15873:320.043   CPU_ReadMem(2 bytes @ 0x20000000)
